hour, t(sec), P1 (kW), Q1 (kvar), P2 (kW), Q2 (kvar), P3 (kW), Q3 (kvar)
0, 900.00000, 806.628, 946.358, 1038.76, 1955.86, -115.043, 1584.15
0, 1800.00000, 804.968, 942.224, 1041.09, 1945.71, -109.187, 1580.75
0, 2700.00000, 803.095, 937.622, 1043.61, 1934.36, -102.668, 1576.9
1, 0.00000, 801.294, 933.255, 1045.94, 1923.54, -96.4858, 1573.19
1, 900.00000, 799.261, 928.392, 1048.46, 1911.43, -89.6018, 1568.99
1, 1800.00000, 798.455, 926.483, 1049.42, 1906.66, -86.9003, 1567.32
1, 2700.00000, 797.805, 924.946, 1050.2, 1902.82, -84.7249, 1565.97
2, 0.00000, 797.142, 923.39, 1050.97, 1898.93, -82.5238, 1564.59
2, 900.00000, 796.47, 921.82, 1051.74, 1894.99, -80.3029, 1563.19
2, 1800.00000, 795.438, 919.43, 1052.88, 1888.97, -76.923, 1561.04
2, 2700.00000, 794.391, 917.013, 1054.03, 1882.88, -73.5063, 1558.86
3, 0.00000, 793.321, 914.562, 1055.16, 1876.69, -70.0429, 1556.62
3, 900.00000, 792.229, 912.078, 1056.3, 1870.4, -66.5318, 1554.34
3, 1800.00000, 791.674, 910.821, 1056.86, 1867.21, -64.7569, 1553.17
3, 2700.00000, 791.49, 910.403, 1057.05, 1866.15, -64.167, 1552.79
4, 0.00000, 791.303, 909.982, 1057.24, 1865.08, -63.5718, 1552.4
4, 900.00000, 791.299, 909.978, 1057.23, 1865.07, -63.5663, 1552.39
4, 1800.00000, 791.665, 910.812, 1056.85, 1867.18, -64.7452, 1553.15
4, 2700.00000, 792.592, 912.906, 1055.91, 1872.5, -67.7038, 1555.1
5, 0.00000, 793.677, 915.38, 1054.78, 1878.75, -71.1994, 1557.37
5, 900.00000, 794.564, 917.416, 1053.83, 1883.89, -74.0765, 1559.22
5, 1800.00000, 795.952, 920.623, 1052.3, 1891.97, -78.6117, 1562.11
5, 2700.00000, 797.299, 924.973, 1049.18, 1902.21, -84.8859, 1565.21
6, 0.00000, 799.41, 929.933, 1046.71, 1914.62, -91.8982, 1569.58
6, 900.00000, 800.805, 934.41, 1043.46, 1925.13, -98.3416, 1572.73
6, 1800.00000, 801.529, 938.425, 1039.53, 1933.85, -104.232, 1574.74
6, 2700.00000, 803.995, 945.422, 1034.96, 1950.58, -114.209, 1580.02
7, 0.00000, 806.316, 952.114, 1030.47, 1966.5, -123.746, 1584.95
7, 900.00000, 815.822, 965.499, 1030.63, 2004.67, -141.798, 1601.86
7, 1800.00000, 816.215, 969.916, 1025.4, 2013.61, -148.333, 1603.33
7, 2700.00000, 815.411, 972.964, 1019.77, 2018.32, -153.021, 1602.74
8, 0.00000, 814.484, 975.632, 1014.42, 2022.13, -157.162, 1601.9
8, 900.00000, 818.673, 983.302, 1011.96, 2042.22, -167.746, 1609.54
8, 1800.00000, 818.282, 986.23, 1007.26, 2047.21, -172.144, 1609.52
8, 2700.00000, 815.885, 985.895, 1003.21, 2043.37, -172.087, 1605.94
9, 0.00000, 814.028, 986.113, 999.436, 2041.3, -172.753, 1603.26
9, 900.00000, 824.207, 997.661, 1002.84, 2076.62, -187.96, 1620.27
9, 1800.00000, 822.456, 997.731, 999.476, 2074.39, -188.366, 1617.72
9, 2700.00000, 821.522, 998.913, 996.13, 2075.34, -190.266, 1616.57
10, 0.00000, 820.682, 1000.32, 992.662, 2076.84, -192.471, 1615.59
10, 900.00000, 808.048, 991.153, 981.452, 2042.8, -181.291, 1595.49
10, 1800.00000, 807.248, 992.724, 977.849, 2044.68, -183.745, 1594.63
10, 2700.00000, 806.74, 994.068, 975.097, 2046.52, -185.809, 1594.15
11, 0.00000, 805.59, 994.893, 971.844, 2046.54, -187.233, 1592.63
11, 900.00000, 792.273, 987.015, 957.463, 2014.18, -178.295, 1571.73
11, 1800.00000, 791.834, 988.48, 954.696, 2016.36, -180.525, 1571.39
11, 2700.00000, 790.946, 988.481, 953.036, 2015.19, -180.705, 1570.11
12, 0.00000, 790.041, 987.752, 952.31, 2012.64, -179.824, 1568.65
12, 900.00000, 789.28, 987.267, 951.528, 2010.73, -179.272, 1567.44
12, 1800.00000, 788.355, 986.536, 950.766, 2008.15, -178.393, 1565.95
12, 2700.00000, 788.038, 986.045, 950.821, 2006.81, -177.743, 1565.39
13, 0.00000, 787.879, 985.799, 950.848, 2006.14, -177.417, 1565.11
13, 900.00000, 788.495, 986.042, 951.679, 2007.41, -177.645, 1566.05
13, 1800.00000, 789.109, 986.283, 952.509, 2008.66, -177.872, 1566.99
13, 2700.00000, 789.874, 986.772, 953.293, 2010.58, -178.429, 1568.2
14, 0.00000, 791.683, 988.24, 954.734, 2015.71, -180.206, 1571.13
14, 900.00000, 793.454, 989.699, 956.108, 2020.77, -181.98, 1573.99
14, 1800.00000, 796.032, 991.875, 958.032, 2028.24, -184.647, 1578.17
14, 2700.00000, 798.387, 993.798, 959.867, 2034.94, -186.994, 1581.96
15, 0.00000, 801.326, 996.186, 962.158, 2043.3, -189.919, 1586.69
15, 900.00000, 790.835, 989.413, 951.594, 2016.79, -182.078, 1570.14
15, 1800.00000, 793.944, 991.809, 954.214, 2025.38, -184.973, 1575.13
15, 2700.00000, 797.622, 994.639, 957.31, 2035.53, -188.394, 1581.03
16, 0.00000, 800.925, 996.994, 960.325, 2044.3, -191.2, 1586.27
16, 900.00000, 791.609, 990.477, 951.618, 2019.78, -183.472, 1571.46
16, 1800.00000, 795.926, 993.608, 955.516, 2031.36, -187.215, 1578.36
16, 2700.00000, 799.883, 996.394, 959.182, 2041.8, -190.522, 1584.65
17, 0.00000, 801.952, 996.488, 962.909, 2044.67, -190.234, 1587.64
17, 900.00000, 791.459, 987.774, 954.92, 2014.52, -179.555, 1570.68
17, 1800.00000, 795.14, 988.635, 960.662, 2020.97, -180.077, 1576.2
17, 2700.00000, 798.129, 989.272, 965.406, 2026.11, -180.419, 1580.67
18, 0.00000, 799.134, 989.119, 967.494, 2027.15, -179.997, 1582.1
18, 900.00000, 784.229, 978.361, 953.8, 1987.36, -167.295, 1558.2
18, 1800.00000, 783.195, 976.779, 953.931, 1983.02, -165.202, 1556.34
18, 2700.00000, 782.32, 975.46, 954.019, 1979.4, -163.461, 1554.78
19, 0.00000, 781.254, 973.859, 954.112, 1974.99, -161.35, 1552.87
19, 900.00000, 795.994, 982.779, 970.055, 2011.09, -171.326, 1576.24
19, 1800.00000, 795.131, 981.209, 970.517, 2007, -169.195, 1574.66
19, 2700.00000, 794.389, 979.908, 970.851, 2003.57, -167.438, 1573.31
20, 0.00000, 793.187, 977.788, 971.401, 1997.99, -164.57, 1571.1
20, 900.00000, 806.104, 986.18, 984.487, 2030.86, -174.33, 1591.68
20, 1800.00000, 805.012, 983.824, 985.588, 2024.96, -171.067, 1589.61
20, 2700.00000, 803.863, 981.479, 986.565, 2019.02, -167.842, 1587.46
21, 0.00000, 803.203, 980.181, 987.062, 2015.71, -166.066, 1586.23
21, 900.00000, 816.082, 991.269, 996.34, 2053.7, -179.947, 1607.23
21, 1800.00000, 816.054, 991.273, 996.263, 2053.69, -179.983, 1607.19
21, 2700.00000, 816.054, 991.274, 996.264, 2053.7, -179.984, 1607.19
22, 0.00000, 815.772, 990.504, 996.779, 2051.86, -178.89, 1606.63
22, 900.00000, 825.823, 998.562, 1004.63, 2080.47, -189.007, 1622.79
22, 1800.00000, 824.935, 995.935, 1006.54, 2074.36, -185.288, 1621.03
22, 2700.00000, 823.937, 993.009, 1008.66, 2067.53, -181.145, 1619.05
23, 0.00000, 822.906, 990.017, 1010.8, 2060.53, -176.909, 1617
23, 900.00000, 821.291, 985.396, 1014.04, 2049.67, -170.364, 1613.78
23, 1800.00000, 819.691, 980.888, 1017.14, 2039.03, -163.976, 1610.58
23, 2700.00000, 817.912, 975.95, 1020.47, 2027.32, -156.979, 1607.02
24, 0.00000, 816.144, 971.123, 1023.64, 2015.81, -150.14, 1603.47
