hour, t(sec), P1 (kW), Q1 (kvar), P2 (kW), Q2 (kvar), P3 (kW), Q3 (kvar)
0, 900.00000, -3.28981, -1.08131, -7.04018, -2.314, -5.29879, -1.74163
0, 1800.00000, -3.29176, -1.08195, -6.99473, -2.29906, -5.28339, -1.73657
0, 2700.00000, -3.2928, -1.08229, -6.94398, -2.28238, -5.2659, -1.73082
1, 0.00000, -3.29347, -1.08251, -6.89538, -2.2664, -5.24855, -1.72511
1, 900.00000, -3.29388, -1.08264, -6.84074, -2.24844, -5.22836, -1.71848
1, 1800.00000, -3.29394, -1.08266, -6.81918, -2.24136, -5.2202, -1.7158
1, 2700.00000, -3.29394, -1.08267, -6.8017, -2.23561, -5.21351, -1.7136
2, 0.00000, -3.29392, -1.08266, -6.78401, -2.2298, -5.20667, -1.71135
2, 900.00000, -3.29385, -1.08263, -6.76612, -2.22392, -5.19969, -1.70905
2, 1800.00000, -3.29368, -1.08258, -6.73889, -2.21496, -5.18892, -1.70552
2, 2700.00000, -3.29342, -1.08249, -6.71118, -2.20586, -5.17781, -1.70186
3, 0.00000, -3.29306, -1.08237, -6.683, -2.1966, -5.16634, -1.69809
3, 900.00000, -3.2926, -1.08222, -6.65433, -2.18717, -5.15451, -1.6942
3, 1800.00000, -3.29234, -1.08214, -6.63981, -2.18241, -5.14847, -1.69219
3, 2700.00000, -3.29224, -1.08211, -6.63494, -2.1808, -5.14642, -1.69154
4, 0.00000, -3.29214, -1.08207, -6.63006, -2.1792, -5.14437, -1.69086
4, 900.00000, -3.29214, -1.08207, -6.63006, -2.17919, -5.14437, -1.69087
4, 1800.00000, -3.29233, -1.08214, -6.6398, -2.18239, -5.14845, -1.69223
4, 2700.00000, -3.29277, -1.08228, -6.66393, -2.19031, -5.15848, -1.69555
5, 0.00000, -3.29318, -1.08242, -6.69245, -2.1997, -5.1702, -1.69937
5, 900.00000, -3.29346, -1.08251, -6.71584, -2.20739, -5.17969, -1.70248
5, 1800.00000, -3.29377, -1.08261, -6.75257, -2.21946, -5.19435, -1.7073
5, 2700.00000, -3.29393, -1.08267, -6.81048, -2.2385, -5.21687, -1.7147
6, 0.00000, -3.2937, -1.08259, -6.86625, -2.25683, -5.23786, -1.7216
6, 900.00000, -3.26658, -1.09696, -6.82146, -2.28777, -5.18788, -1.74063
6, 1800.00000, -3.23974, -1.11103, -6.78107, -2.31945, -5.14015, -1.75967
6, 2700.00000, -3.22694, -1.11698, -6.81968, -2.35292, -5.13876, -1.77486
7, 0.00000, -3.21306, -1.122, -6.85603, -2.38496, -5.13678, -1.78921
7, 900.00000, -3.25152, -1.09095, -7.11798, -2.38582, -5.28902, -1.77357
7, 1800.00000, -3.21346, -1.10941, -7.04932, -2.42631, -5.21824, -1.79802
7, 2700.00000, -3.15407, -1.14155, -6.88891, -2.4787, -5.08594, -1.83406
8, 0.00000, -3.09367, -1.17399, -6.72528, -2.52946, -4.9529, -1.86927
8, 900.00000, -3.08597, -1.1726, -6.7751, -2.55125, -4.96492, -1.87629
8, 1800.00000, -3.03814, -1.19677, -6.65958, -2.59416, -4.86603, -1.90423
8, 2700.00000, -2.96404, -1.23883, -6.42181, -2.64336, -4.6913, -1.94313
9, 0.00000, -2.89879, -1.27408, -6.22787, -2.68585, -4.5458, -1.9756
9, 900.00000, -2.99175, -1.21517, -6.60073, -2.64701, -4.79176, -1.93255
9, 1800.00000, -2.93073, -1.24942, -6.4115, -2.68939, -4.65138, -1.96494
9, 2700.00000, -2.88075, -1.27553, -6.2747, -2.72628, -4.54474, -1.99101
10, 0.00000, -2.83002, -1.30133, -6.1414, -2.76359, -4.43949, -2.01684
10, 900.00000, -2.60226, -1.4205, -5.46038, -2.87355, -3.94933, -2.10985
10, 1800.00000, -2.54348, -1.4475, -5.32373, -2.91029, -3.84024, -2.1347
10, 2700.00000, -2.49956, -1.46729, -5.22486, -2.93813, -3.76046, -2.1531
11, 0.00000, -2.43561, -1.49628, -5.07333, -2.97245, -3.64306, -2.17731
11, 900.00000, -2.18006, -1.60575, -4.44349, -3.06612, -3.17663, -2.25313
11, 1800.00000, -2.13069, -1.6258, -4.34395, -3.09342, -3.09573, -2.27035
11, 2700.00000, -2.09067, -1.64159, -4.255, -3.10935, -3.02762, -2.28179
12, 0.00000, -2.06503, -1.65138, -4.19317, -3.11572, -2.98244, -2.28751
12, 900.00000, -2.0408, -1.66059, -4.1367, -3.12263, -2.94054, -2.29319
12, 1800.00000, -2.01432, -1.67048, -4.074, -3.12899, -2.89453, -2.29882
12, 2700.00000, -2.01047, -1.67177, -4.0622, -3.12791, -2.8869, -2.29882
13, 0.00000, -2.00852, -1.6724, -4.0563, -3.1274, -2.88305, -2.29882
13, 900.00000, -2.0314, -1.66376, -4.10748, -3.11994, -2.92175, -2.2932
13, 1800.00000, -2.05404, -1.65513, -4.15848, -3.1125, -2.96023, -2.28755
13, 2700.00000, -2.07823, -1.64592, -4.21503, -3.10561, -3.00219, -2.28187
14, 0.00000, -2.12901, -1.62641, -4.33834, -3.09287, -3.09223, -2.27037
14, 900.00000, -2.17805, -1.60714, -4.45978, -3.0801, -3.18046, -2.25871
14, 1800.00000, -2.24905, -1.57788, -4.63921, -3.06135, -3.30971, -2.24106
14, 2700.00000, -2.3159, -1.54828, -4.81073, -3.04271, -3.43261, -2.22349
15, 0.00000, -2.39835, -1.51022, -5.03019, -3.01714, -3.58922, -2.19971
15, 900.00000, -2.26284, -1.57142, -4.68429, -3.06451, -3.33777, -2.24014
15, 1800.00000, -2.34786, -1.53313, -4.90484, -3.03935, -3.49583, -2.2166
15, 2700.00000, -2.44487, -1.48708, -5.16937, -3.00689, -3.68382, -2.18709
16, 0.00000, -2.53155, -1.44387, -5.41572, -2.97314, -3.85868, -2.15706
16, 900.00000, -2.44455, -1.48724, -5.16857, -3.00692, -3.68317, -2.18733
16, 1800.00000, -2.5477, -1.43537, -5.46515, -2.96728, -3.89282, -2.15139
16, 2700.00000, -2.63965, -1.38625, -5.74563, -2.92669, -4.08945, -2.11521
17, 0.00000, -2.70581, -1.35135, -5.93741, -2.88873, -4.23015, -2.08458
17, 900.00000, -2.64044, -1.39018, -5.70583, -2.91207, -4.07638, -2.11112
17, 1800.00000, -2.74748, -1.33281, -6.0263, -2.85255, -4.30732, -2.06387
17, 2700.00000, -2.83284, -1.28468, -6.2964, -2.80044, -4.50085, -2.02187
18, 0.00000, -2.87873, -1.25796, -6.44583, -2.77087, -4.60839, -1.9968
18, 900.00000, -2.73394, -1.34594, -5.92891, -2.84377, -4.2573, -2.06617
18, 1800.00000, -2.73156, -1.34838, -5.90583, -2.83895, -4.24649, -2.06552
18, 2700.00000, -2.72904, -1.35092, -5.88582, -2.83607, -4.23631, -2.06589
19, 0.00000, -2.7261, -1.35379, -5.86156, -2.83226, -4.22433, -2.0657
19, 900.00000, -2.87514, -1.26883, -6.35671, -2.755, -4.56959, -1.9984
19, 1800.00000, -2.87503, -1.27049, -6.33574, -2.75042, -4.56218, -1.9963
19, 2700.00000, -2.87335, -1.2733, -6.31793, -2.74837, -4.55307, -1.99799
20, 0.00000, -2.87176, -1.27654, -6.28927, -2.74322, -4.54035, -1.99785
20, 900.00000, -3.00224, -1.19692, -6.75361, -2.66215, -4.86425, -1.92789
20, 1800.00000, -3.0029, -1.19971, -6.72612, -2.65627, -4.85367, -1.9279
20, 2700.00000, -3.20375, -1.05302, -7.60507, -2.49966, -5.43747, -1.78721
21, 0.00000, -3.20636, -1.05388, -7.59534, -2.49647, -5.43647, -1.78688
21, 900.00000, -3.20636, -1.05388, -7.59536, -2.49647, -5.43645, -1.78688
21, 1800.00000, -3.20636, -1.05388, -7.59536, -2.49647, -5.43645, -1.78688
21, 2700.00000, -3.20636, -1.05388, -7.59536, -2.49647, -5.43645, -1.78688
22, 0.00000, -3.20792, -1.05439, -7.58941, -2.49452, -5.43583, -1.78667
22, 900.00000, -3.21412, -1.05643, -7.56498, -2.48649, -5.43298, -1.78573
22, 1800.00000, -3.21971, -1.05827, -7.54172, -2.47884, -5.42983, -1.7847
22, 2700.00000, -3.22569, -1.06023, -7.51531, -2.47016, -5.42581, -1.78337
23, 0.00000, -3.23155, -1.06216, -7.48779, -2.46112, -5.42116, -1.78185
23, 900.00000, -3.2401, -1.06496, -7.44437, -2.44684, -5.41296, -1.77915
23, 1800.00000, -3.24787, -1.06751, -7.40093, -2.43256, -5.40376, -1.77612
23, 2700.00000, -3.25575, -1.07008, -7.35222, -2.41655, -5.3924, -1.77239
24, 0.00000, -3.26282, -1.07239, -7.30357, -2.40054, -5.38005, -1.76832
