hour, t(sec), P1 (kW), Q1 (kvar), P2 (kW), Q2 (kvar), P3 (kW), Q3 (kvar)
0, 900.00000, 0.916137, 0.663593, 2.91439, 2.11104, 1.49559, 1.08417
0, 1800.00000, 0.926328, 0.670969, 2.94586, 2.13382, 1.51529, 1.09842
0, 2700.00000, 0.937608, 0.679134, 2.98058, 2.15895, 1.53718, 1.11427
1, 0.00000, 0.948241, 0.68683, 3.0132, 2.18255, 1.5579, 1.12926
1, 900.00000, 0.960008, 0.695346, 3.04917, 2.20858, 1.58092, 1.14592
1, 1800.00000, 0.964605, 0.698674, 3.06318, 2.21872, 1.58995, 1.15245
1, 2700.00000, 0.968297, 0.70134, 3.07445, 2.22682, 1.59722, 1.15768
2, 0.00000, 0.972026, 0.704038, 3.08579, 2.23502, 1.60456, 1.16299
2, 900.00000, 0.97578, 0.706755, 3.09719, 2.24326, 1.61196, 1.16834
2, 1800.00000, 0.981483, 0.710889, 3.11443, 2.2558, 1.6232, 1.17651
2, 2700.00000, 0.987227, 0.715046, 3.1318, 2.26836, 1.63457, 1.18473
3, 0.00000, 0.99303, 0.719246, 3.1493, 2.28103, 1.64607, 1.19306
3, 900.00000, 0.998894, 0.723489, 3.16695, 2.29379, 1.65773, 1.20148
3, 1800.00000, 1.00185, 0.725633, 3.17582, 2.30023, 1.66361, 1.20575
3, 2700.00000, 1.00283, 0.72634, 3.17878, 2.30235, 1.66557, 1.20715
4, 0.00000, 1.00382, 0.727057, 3.18175, 2.30449, 1.66754, 1.20858
4, 900.00000, 1.00384, 0.72707, 3.18176, 2.30454, 1.66755, 1.20862
4, 1800.00000, 1.00188, 0.725662, 3.17582, 2.30034, 1.66362, 1.20583
4, 2700.00000, 0.996944, 0.722084, 3.16104, 2.28958, 1.65382, 1.19871
5, 0.00000, 0.991099, 0.717853, 3.14344, 2.27684, 1.64222, 1.19031
5, 900.00000, 0.986273, 0.714359, 3.12888, 2.2663, 1.63266, 1.18338
5, 1800.00000, 0.97864, 0.708835, 3.10579, 2.24959, 1.61757, 1.17246
5, 2700.00000, 0.956004, 0.704171, 3.03402, 2.23486, 1.5762, 1.16185
6, 0.00000, 0.944458, 0.695431, 2.99894, 2.20826, 1.5535, 1.14474
6, 900.00000, 0.922411, 0.690195, 2.92901, 2.1917, 1.51337, 1.13323
6, 1800.00000, 0.890568, 0.688274, 2.82667, 2.18471, 1.45714, 1.12703
6, 2700.00000, 0.864645, 0.677873, 2.74516, 2.15228, 1.4095, 1.1059
7, 0.00000, 0.840115, 0.667695, 2.66787, 2.12045, 1.36465, 1.08545
7, 900.00000, 0.799213, 0.618891, 2.54912, 1.97429, 1.29423, 1.00308
7, 1800.00000, 0.762314, 0.617798, 2.42937, 1.96898, 1.23035, 0.997993
7, 2700.00000, 0.710358, 0.622935, 2.26056, 1.98257, 1.14292, 1.00316
8, 0.00000, 0.659717, 0.628603, 2.0964, 1.9978, 1.05835, 1.00934
8, 900.00000, 0.615611, 0.606278, 1.9591, 1.92951, 0.984893, 0.970755
8, 1800.00000, 0.577024, 0.608677, 1.8343, 1.93521, 0.920663, 0.972041
8, 2700.00000, 0.522117, 0.621997, 1.65661, 1.974, 0.831574, 0.99163
9, 0.00000, 0.474863, 0.632383, 1.50432, 2.00388, 0.754993, 1.00646
9, 900.00000, 0.46493, 0.575795, 1.48057, 1.83384, 0.738551, 0.91536
9, 1800.00000, 0.421377, 0.585558, 1.3399, 1.86247, 0.668264, 0.92958
9, 2700.00000, 0.388314, 0.590752, 1.23347, 1.87705, 0.614766, 0.936222
10, 0.00000, 0.355703, 0.595386, 1.12871, 1.88986, 0.562098, 0.941869
10, 900.00000, 0.279828, 0.66595, 0.88098, 2.09762, 0.440747, 1.05044
10, 1800.00000, 0.244931, 0.670453, 0.770282, 2.10957, 0.385022, 1.05547
10, 2700.00000, 0.219405, 0.673273, 0.689441, 2.11689, 0.344331, 1.05833
11, 0.00000, 0.183367, 0.679636, 0.575455, 2.13454, 0.287204, 1.06663
11, 900.00000, 0.10369, 0.75314, 0.322232, 2.34455, 0.161374, 1.17637
11, 1800.00000, 0.0768791, 0.755599, 0.23855, 2.35064, 0.119266, 1.17845
11, 2700.00000, 0.0555257, 0.760472, 0.171955, 2.36407, 0.0858865, 1.18514
12, 0.00000, 0.0418665, 0.765418, 0.129394, 2.37808, 0.0645825, 1.1926
12, 900.00000, 0.0289661, 0.769597, 0.0892611, 2.38984, 0.044469, 1.1988
12, 1800.00000, 0.0148751, 0.774642, 0.0454517, 2.40408, 0.0225058, 1.2064
12, 2700.00000, 0.0127575, 0.776385, 0.0388969, 2.40913, 0.0192256, 1.20925
13, 0.00000, 0.011682, 0.777258, 0.0355658, 2.41166, 0.0175553, 1.21069
13, 900.00000, 0.0238175, 0.773911, 0.073298, 2.40235, 0.0364923, 1.20588
13, 1800.00000, 0.035871, 0.770539, 0.110772, 2.39295, 0.0552932, 1.20103
13, 2700.00000, 0.0487977, 0.766355, 0.151009, 2.38119, 0.0754652, 1.19483
14, 0.00000, 0.0759979, 0.756465, 0.235837, 2.35314, 0.117933, 1.17986
14, 900.00000, 0.102347, 0.746733, 0.318158, 2.32544, 0.15908, 1.16509
14, 1800.00000, 0.140286, 0.732529, 0.437017, 2.28484, 0.218372, 1.14346
14, 2700.00000, 0.17577, 0.719494, 0.548501, 2.24747, 0.273878, 1.12365
15, 0.00000, 0.220322, 0.703179, 0.688929, 2.20049, 0.343645, 1.09882
15, 900.00000, 0.208264, 0.761077, 0.646743, 2.36558, 0.323729, 1.18549
15, 1800.00000, 0.253953, 0.743836, 0.790385, 2.31623, 0.395183, 1.15931
15, 2700.00000, 0.307331, 0.723566, 0.958989, 2.25818, 0.478842, 1.12863
16, 0.00000, 0.357193, 0.705357, 1.1171, 2.20594, 0.557177, 1.10124
16, 900.00000, 0.37784, 0.756839, 1.17439, 2.35352, 0.5878, 1.17903
16, 1800.00000, 0.438464, 0.73338, 1.36721, 2.28641, 0.683241, 1.14366
16, 2700.00000, 0.494006, 0.711639, 1.54449, 2.22412, 0.770773, 1.11097
17, 0.00000, 0.538197, 0.699698, 1.68473, 2.19103, 0.840761, 1.09441
17, 900.00000, 0.577969, 0.757602, 1.79781, 2.35725, 0.901406, 1.18292
17, 1800.00000, 0.64893, 0.737326, 2.0242, 2.30061, 1.01453, 1.15411
17, 2700.00000, 0.707663, 0.720865, 2.21248, 2.25433, 1.10859, 1.13062
18, 0.00000, 0.732804, 0.715353, 2.29309, 2.23887, 1.14914, 1.12299
18, 900.00000, 0.735747, 0.796744, 2.28038, 2.4696, 1.14948, 1.2458
18, 1800.00000, 0.738392, 0.801912, 2.28718, 2.48466, 1.15381, 1.25446
18, 2700.00000, 0.740627, 0.806575, 2.29317, 2.49805, 1.15768, 1.26214
19, 0.00000, 0.743338, 0.812156, 2.30035, 2.51404, 1.16232, 1.27134
19, 900.00000, 0.754, 0.732294, 2.35684, 2.28938, 1.18522, 1.15223
19, 1800.00000, 0.757239, 0.736605, 2.36594, 2.30221, 1.19079, 1.15963
19, 2700.00000, 0.759799, 0.740619, 2.37328, 2.31405, 1.19533, 1.16644
20, 0.00000, 0.764042, 0.746838, 2.38523, 2.3324, 1.20273, 1.17702
20, 900.00000, 0.770971, 0.676517, 2.42749, 2.13045, 1.2186, 1.07031
20, 1800.00000, 0.776392, 0.68182, 2.44334, 2.14677, 1.22809, 1.07981
20, 2700.00000, 0.781554, 0.687987, 2.45871, 2.1654, 1.23737, 1.09059
21, 0.00000, 0.784326, 0.691789, 2.46715, 2.17675, 1.2425, 1.09715
21, 900.00000, 0.781273, 0.621131, 2.47633, 1.96904, 1.23985, 0.986439
21, 1800.00000, 0.780942, 0.621445, 2.47549, 1.97011, 1.23928, 0.987197
21, 2700.00000, 0.780946, 0.621454, 2.47553, 1.97009, 1.23931, 0.987176
22, 0.00000, 0.782972, 0.622736, 2.48162, 1.97422, 1.24289, 0.989584
22, 900.00000, 0.782415, 0.566806, 2.49478, 1.80736, 1.24413, 0.90218
22, 1800.00000, 0.789366, 0.571837, 2.51683, 1.82332, 1.25688, 0.91141
22, 2700.00000, 0.797082, 0.577421, 2.54129, 1.84101, 1.27108, 0.921682
23, 0.00000, 0.804939, 0.583106, 2.56617, 1.859, 1.28559, 0.932172
23, 900.00000, 0.817015, 0.591849, 2.60433, 1.88664, 1.30796, 0.948373
23, 1800.00000, 0.828729, 0.600326, 2.64129, 1.91338, 1.32976, 0.964149
23, 2700.00000, 0.841477, 0.609552, 2.68144, 1.94242, 1.35361, 0.981397
24, 0.00000, 0.853857, 0.61851, 2.72034, 1.97056, 1.37688, 0.998225
