hour, t(sec), P1 (kW), Q1 (kvar), P2 (kW), Q2 (kvar), P3 (kW), Q3 (kvar)
0, 900.00000, 3.20619, 0.935641, 6.89657, 2.01205, 5.24649, 1.53139
0, 1800.00000, 3.20747, 0.936004, 6.85069, 1.99867, 5.23084, 1.5268
0, 2700.00000, 3.20851, 0.9363, 6.79922, 1.98364, 5.21262, 1.52146
1, 0.00000, 3.2092, 0.936495, 6.74997, 1.96925, 5.19456, 1.51617
1, 900.00000, 3.20964, 0.936617, 6.69467, 1.95311, 5.17359, 1.51003
1, 1800.00000, 3.20971, 0.936637, 6.67286, 1.94674, 5.16513, 1.50756
1, 2700.00000, 3.20973, 0.936642, 6.65518, 1.94158, 5.15819, 1.50552
2, 0.00000, 3.20972, 0.936636, 6.6373, 1.93636, 5.1511, 1.50345
2, 900.00000, 3.20967, 0.93662, 6.61921, 1.93108, 5.14386, 1.50133
2, 1800.00000, 3.20953, 0.936574, 6.5917, 1.92305, 5.13272, 1.49807
2, 2700.00000, 3.20929, 0.936502, 6.56373, 1.91488, 5.12122, 1.49471
3, 0.00000, 3.20897, 0.936404, 6.53528, 1.90658, 5.10936, 1.49124
3, 900.00000, 3.20854, 0.936277, 6.50635, 1.89813, 5.09714, 1.48766
3, 1800.00000, 3.20829, 0.936203, 6.49171, 1.89387, 5.0909, 1.48581
3, 2700.00000, 3.2082, 0.936177, 6.4868, 1.89243, 5.08878, 1.48521
4, 0.00000, 3.20811, 0.93615, 6.48188, 1.89099, 5.08667, 1.48459
4, 900.00000, 3.20811, 0.936151, 6.48187, 1.89099, 5.08666, 1.4846
4, 1800.00000, 3.20829, 0.936205, 6.4917, 1.89385, 5.09088, 1.48585
4, 2700.00000, 3.20869, 0.936325, 6.51605, 1.90096, 5.10125, 1.48887
5, 0.00000, 3.20908, 0.936442, 6.54482, 1.90936, 5.11335, 1.49241
5, 900.00000, 3.20933, 0.936518, 6.56843, 1.91625, 5.12316, 1.49528
5, 1800.00000, 3.2096, 0.936602, 6.60552, 1.92708, 5.13833, 1.49972
5, 2700.00000, 3.20971, 0.936643, 6.66406, 1.94417, 5.16167, 1.50655
6, 0.00000, 3.20944, 0.936573, 6.72048, 1.96064, 5.18345, 1.51292
6, 900.00000, 3.15197, 0.940674, 6.64941, 1.98126, 5.10696, 1.52298
6, 1800.00000, 3.09604, 0.944561, 6.58324, 2.00243, 5.03348, 1.53301
6, 2700.00000, 3.07009, 0.94584, 6.60941, 2.02873, 5.02011, 1.54322
7, 0.00000, 3.04337, 0.946311, 6.63339, 2.05372, 5.00656, 1.55275
7, 900.00000, 3.19311, 0.819485, 7.5633, 1.95391, 5.58236, 1.43896
7, 1800.00000, 3.11937, 0.824505, 7.44564, 1.97783, 5.46763, 1.44997
7, 2700.00000, 3.00661, 0.832562, 7.22061, 2.00455, 5.27712, 1.46398
8, 0.00000, 2.89722, 0.840325, 6.99704, 2.02964, 5.09072, 1.4772
8, 900.00000, 2.88571, 0.792693, 7.22128, 1.98911, 5.1888, 1.42769
8, 1800.00000, 2.80536, 0.798446, 7.05601, 2.01027, 5.04833, 1.43797
8, 2700.00000, 2.68991, 0.807376, 6.77315, 2.02974, 4.83445, 1.45056
9, 0.00000, 2.59395, 0.814698, 6.54299, 2.04705, 4.65858, 1.46118
9, 900.00000, 2.61442, 0.769997, 6.77916, 1.99546, 4.78166, 1.40835
9, 1800.00000, 2.52479, 0.776954, 6.55609, 2.01221, 4.61275, 1.41867
9, 2700.00000, 2.45415, 0.782356, 6.38803, 2.02772, 4.48217, 1.4271
10, 0.00000, 2.3846, 0.787587, 6.22414, 2.04352, 4.35373, 1.43546
10, 900.00000, 2.31583, 0.792754, 6.05965, 2.05854, 4.22629, 1.44357
10, 1800.00000, 2.2483, 0.797757, 5.89925, 2.07375, 4.10144, 1.45155
10, 2700.00000, 2.19859, 0.801381, 5.78205, 2.0853, 4.00967, 1.45744
11, 0.00000, 2.13148, 0.806416, 5.6168, 2.09873, 3.88465, 1.46506
11, 900.00000, 1.8426, 0.913615, 4.67344, 2.24468, 3.25329, 1.59335
11, 1800.00000, 1.79135, 0.916798, 4.56022, 2.25604, 3.16378, 1.59879
11, 2700.00000, 1.75338, 0.919603, 4.46979, 2.26195, 3.09609, 1.60257
12, 0.00000, 1.73111, 0.921595, 4.41273, 2.26366, 3.0563, 1.60451
12, 900.00000, 1.53952, 0.983734, 3.86437, 2.33557, 2.67888, 1.67064
12, 1800.00000, 1.51467, 0.985958, 3.80424, 2.33733, 2.63595, 1.67262
12, 2700.00000, 1.51164, 0.986439, 3.7949, 2.33651, 2.63037, 1.67272
13, 0.00000, 1.51013, 0.986576, 3.79008, 2.33619, 2.62707, 1.67287
13, 900.00000, 1.33202, 1.0512, 3.30842, 2.40344, 2.2914, 1.73557
13, 1800.00000, 1.35559, 1.04937, 3.361, 2.40081, 2.3305, 1.73362
13, 2700.00000, 1.38094, 1.04724, 3.41875, 2.39863, 2.37277, 1.7316
14, 0.00000, 1.43482, 1.04238, 3.5441, 2.39521, 2.46317, 1.72751
14, 900.00000, 1.48787, 1.03757, 3.66838, 2.39175, 2.55267, 1.72341
14, 1800.00000, 1.56593, 1.03045, 3.85289, 2.38655, 2.68524, 1.71726
14, 2700.00000, 1.6408, 1.02371, 4.0305, 2.38092, 2.81311, 1.71118
15, 0.00000, 1.73744, 1.01505, 4.26142, 2.37315, 2.97934, 1.70314
15, 900.00000, 1.83284, 1.00627, 4.49344, 2.36579, 3.14521, 1.69506
15, 1800.00000, 1.92464, 0.997901, 4.71802, 2.35804, 3.30593, 1.68709
15, 2700.00000, 2.03581, 0.98776, 4.99268, 2.34817, 3.50222, 1.67718
16, 0.00000, 2.14237, 0.978303, 5.25605, 2.33755, 3.69131, 1.66748
16, 900.00000, 1.95626, 1.10067, 4.58967, 2.4651, 3.24816, 1.78509
16, 1800.00000, 2.10089, 1.08734, 4.92582, 2.45292, 3.49238, 1.77358
16, 2700.00000, 2.24007, 1.0748, 5.25235, 2.44082, 3.72956, 1.76264
17, 0.00000, 2.34783, 1.06718, 5.48883, 2.42619, 3.90885, 1.75308
17, 900.00000, 2.34606, 1.12857, 5.3261, 2.47701, 3.81979, 1.80491
17, 1800.00000, 2.53103, 1.115, 5.72527, 2.4555, 4.1216, 1.79029
17, 2700.00000, 2.69145, 1.10332, 6.07251, 2.4365, 4.3848, 1.77739
18, 0.00000, 2.78262, 1.09677, 6.26978, 2.42548, 4.53477, 1.76998
18, 900.00000, 2.62867, 1.17649, 5.73241, 2.49136, 4.16864, 1.83447
18, 1800.00000, 2.62552, 1.1791, 5.70803, 2.48804, 4.15628, 1.83453
18, 2700.00000, 2.6228, 1.18127, 5.68746, 2.48524, 4.14585, 1.83449
19, 0.00000, 2.6194, 1.18388, 5.66244, 2.48179, 4.13307, 1.83441
19, 900.00000, 2.61646, 1.18606, 5.64132, 2.47886, 4.12223, 1.8343
19, 1800.00000, 2.6128, 1.18869, 5.61563, 2.47527, 4.10895, 1.83413
19, 2700.00000, 3.107, 0.90683, 7.53848, 2.19957, 5.39933, 1.57631
20, 0.00000, 3.11116, 0.908038, 7.52426, 2.19542, 5.39839, 1.57602
20, 900.00000, 3.11581, 0.909392, 7.50769, 2.19057, 5.39715, 1.57564
20, 1800.00000, 3.12042, 0.910733, 7.49058, 2.18557, 5.39561, 1.57518
20, 2700.00000, 3.12499, 0.91206, 7.47292, 2.18041, 5.39377, 1.57463
21, 0.00000, 3.1275, 0.91279, 7.46288, 2.17747, 5.3926, 1.57428
21, 900.00000, 3.1275, 0.91279, 7.4629, 2.17748, 5.39259, 1.57428
21, 1800.00000, 3.1275, 0.91279, 7.4629, 2.17748, 5.39259, 1.57428
21, 2700.00000, 3.1275, 0.91279, 7.4629, 2.17748, 5.39259, 1.57428
22, 0.00000, 3.129, 0.913218, 7.45686, 2.17571, 5.3918, 1.57406
22, 900.00000, 3.13495, 0.914953, 7.43164, 2.16834, 5.38854, 1.57308
22, 1800.00000, 3.1403, 0.916508, 7.40772, 2.16135, 5.38497, 1.57202
22, 2700.00000, 3.14604, 0.918174, 7.38058, 2.15342, 5.38047, 1.57069
23, 0.00000, 3.15167, 0.919805, 7.35234, 2.14517, 5.37534, 1.56918
23, 900.00000, 3.15987, 0.922173, 7.30785, 2.13216, 5.36637, 1.56654
23, 1800.00000, 3.16732, 0.924328, 7.26339, 2.11917, 5.35643, 1.56361
23, 2700.00000, 3.17488, 0.926503, 7.21362, 2.10461, 5.34424, 1.56002
24, 0.00000, 3.18167, 0.928456, 7.16396, 2.0901, 5.33108, 1.55614
