hour, t(sec), P1 (kW), Q1 (kvar), P2 (kW), Q2 (kvar), P3 (kW), Q3 (kvar)
0, 900.00000, -2.79948, -1.43422, -5.97271, -3.05992, -4.46115, -2.28552
0, 1800.00000, -2.80216, -1.43559, -5.93475, -3.04046, -4.44809, -2.27883
0, 2700.00000, -2.80334, -1.43619, -5.89267, -3.01891, -4.43374, -2.27147
1, 0.00000, -2.80392, -1.43648, -5.85244, -2.9983, -4.41968, -2.26427
1, 900.00000, -2.80426, -1.43666, -5.8072, -2.97512, -4.4033, -2.25587
1, 1800.00000, -2.8043, -1.43668, -5.78934, -2.96596, -4.39667, -2.25248
1, 2700.00000, -2.8043, -1.43668, -5.77485, -2.95854, -4.39123, -2.24969
2, 0.00000, -2.80427, -1.43667, -5.76018, -2.95103, -4.38567, -2.24684
2, 900.00000, -2.80422, -1.43664, -5.74535, -2.94343, -4.37998, -2.24393
2, 1800.00000, -2.80407, -1.43656, -5.72276, -2.93186, -4.37123, -2.23944
2, 2700.00000, -2.80384, -1.43645, -5.69978, -2.92008, -4.36218, -2.23481
3, 0.00000, -2.80353, -1.43629, -5.67639, -2.9081, -4.35283, -2.23002
3, 900.00000, -2.80314, -1.43609, -5.65258, -2.89591, -4.34319, -2.22508
3, 1800.00000, -2.80291, -1.43597, -5.64053, -2.88974, -4.33826, -2.22253
3, 2700.00000, -2.80283, -1.43593, -5.63648, -2.88766, -4.33659, -2.22169
4, 0.00000, -2.80274, -1.43589, -5.63243, -2.88558, -4.33492, -2.22083
4, 900.00000, -2.80274, -1.43589, -5.63243, -2.88558, -4.33491, -2.22084
4, 1800.00000, -2.80291, -1.43597, -5.64052, -2.88972, -4.33824, -2.22257
4, 2700.00000, -2.80328, -1.43616, -5.66056, -2.89997, -4.34642, -2.22677
5, 0.00000, -2.80364, -1.43635, -5.68423, -2.91212, -4.35598, -2.23164
5, 900.00000, -2.80388, -1.43647, -5.70364, -2.92206, -4.3637, -2.23559
5, 1800.00000, -2.80414, -1.43661, -5.73411, -2.93767, -4.37564, -2.24171
5, 2700.00000, -2.80429, -1.43668, -5.78213, -2.96227, -4.39396, -2.25109
6, 0.00000, -2.8041, -1.43659, -5.82833, -2.98594, -4.411, -2.25982
6, 900.00000, -2.7779, -1.45904, -5.77572, -3.02904, -4.35864, -2.28702
6, 1800.00000, -2.75184, -1.48112, -5.72695, -3.07311, -4.30827, -2.31421
6, 2700.00000, -2.73958, -1.49062, -5.75207, -3.11791, -4.30212, -2.33498
7, 0.00000, -2.72586, -1.49838, -5.77596, -3.16105, -4.29621, -2.35489
7, 900.00000, -2.89523, -1.28789, -6.6969, -3.00072, -4.88371, -2.18115
7, 1800.00000, -2.86312, -1.31532, -6.61646, -3.05665, -4.81027, -2.21649
7, 2700.00000, -2.81674, -1.36185, -6.45725, -3.13146, -4.68694, -2.26971
8, 0.00000, -2.76905, -1.40901, -6.29535, -3.20447, -4.56255, -2.32201
8, 900.00000, -2.80473, -1.3441, -6.57929, -3.16341, -4.72457, -2.26768
8, 1800.00000, -2.76771, -1.37923, -6.46128, -3.22423, -4.63084, -2.30914
8, 2700.00000, -2.71784, -1.4364, -6.24999, -3.29783, -4.48421, -2.36809
9, 0.00000, -2.67186, -1.48523, -6.07318, -3.3611, -4.35851, -2.4174
9, 900.00000, -2.7244, -1.40996, -6.37314, -3.2967, -4.54329, -2.35073
9, 1800.00000, -2.68176, -1.45715, -6.20201, -3.3598, -4.42277, -2.39991
9, 2700.00000, -2.64418, -1.49445, -6.07137, -3.41383, -4.32632, -2.43936
10, 0.00000, -2.60497, -1.53183, -5.94186, -3.46848, -4.22924, -2.47858
10, 900.00000, -2.56457, -1.57002, -5.80919, -3.52211, -4.13055, -2.51747
10, 1800.00000, -2.52258, -1.6082, -5.67789, -3.57624, -4.03164, -2.55603
10, 2700.00000, -2.49021, -1.63668, -5.5808, -3.61717, -3.95759, -2.58467
11, 0.00000, -2.44573, -1.67697, -5.44025, -3.66881, -3.85389, -2.62274
11, 900.00000, -2.09839, -1.97288, -4.36675, -3.92837, -3.09644, -2.84276
11, 1800.00000, -2.05316, -2.00434, -4.262, -3.96846, -3.01389, -2.86911
11, 2700.00000, -2.01812, -2.02909, -4.17531, -3.99203, -2.94923, -2.88659
12, 0.00000, -1.99695, -2.04422, -4.11894, -4.00159, -2.90915, -2.89537
12, 900.00000, -1.73362, -2.21224, -3.4843, -4.12256, -2.44495, -2.99412
12, 1800.00000, -1.70738, -2.2271, -3.42342, -4.13261, -2.39977, -3.00234
12, 2700.00000, -1.70416, -2.22869, -3.41331, -4.13134, -2.39303, -3.00233
13, 0.00000, -1.70273, -2.22939, -3.4082, -4.13047, -2.38984, -3.00208
13, 900.00000, -1.43907, -2.37079, -2.83958, -4.2312, -1.96325, -3.07496
13, 1800.00000, -1.46553, -2.35715, -2.89324, -4.22014, -2.00425, -3.06784
13, 2700.00000, -1.4938, -2.3426, -2.95223, -4.20982, -2.04879, -3.06073
14, 0.00000, -1.55305, -2.31184, -3.07991, -4.19053, -2.14408, -3.04638
14, 900.00000, -1.61014, -2.28135, -3.20558, -4.17119, -2.23752, -3.03153
14, 1800.00000, -1.69186, -2.23619, -3.39031, -4.14202, -2.37415, -3.00843
14, 2700.00000, -1.76754, -2.19258, -3.56574, -4.11201, -2.50349, -2.9844
15, 0.00000, -1.86191, -2.13502, -3.79095, -4.07195, -2.66827, -2.95138
15, 900.00000, -1.95231, -2.07439, -4.01582, -4.03421, -2.82995, -2.91795
15, 1800.00000, -2.03389, -2.01641, -4.22901, -3.99532, -2.98243, -2.88335
15, 2700.00000, -2.12587, -1.94678, -4.48381, -3.94538, -3.16329, -2.83914
16, 0.00000, -2.20702, -1.88138, -4.72128, -3.89316, -3.33099, -2.79455
16, 900.00000, -1.91662, -2.09832, -3.93207, -4.0568, -2.76702, -2.93408
16, 1800.00000, -2.03615, -2.01429, -4.23925, -3.99785, -2.98807, -2.88348
16, 2700.00000, -2.14116, -1.93453, -4.52911, -3.93694, -3.1947, -2.83166
17, 0.00000, -2.21447, -1.87744, -4.72969, -3.88003, -3.34209, -2.78788
17, 900.00000, -2.1398, -1.9397, -4.49485, -3.91597, -3.18189, -2.82614
17, 1800.00000, -2.25874, -1.84605, -4.82767, -3.82768, -3.42398, -2.7564
17, 2700.00000, -2.35145, -1.76768, -5.1068, -3.74958, -3.6251, -2.69435
18, 0.00000, -2.40021, -1.7245, -5.26079, -3.70472, -3.73582, -2.65811
18, 900.00000, -2.24129, -1.86604, -4.73557, -3.81615, -3.37298, -2.76029
18, 1800.00000, -2.23771, -1.87031, -4.71382, -3.81093, -3.36183, -2.76007
18, 2700.00000, -2.23449, -1.87398, -4.69519, -3.807, -3.35182, -2.76017
19, 0.00000, -2.23055, -1.87837, -4.67261, -3.80204, -3.33981, -2.76004
19, 900.00000, -2.22712, -1.88206, -4.65349, -3.79794, -3.32945, -2.75998
19, 1800.00000, -2.2229, -1.88648, -4.6303, -3.79275, -3.31698, -2.75972
19, 2700.00000, -2.21924, -1.89019, -4.61068, -3.78844, -3.30626, -2.75954
20, 0.00000, -2.71272, -1.38977, -6.478, -3.31877, -4.57355, -2.3431
20, 900.00000, -2.71689, -1.3919, -6.46498, -3.31211, -4.57291, -2.34277
20, 1800.00000, -2.72104, -1.39403, -6.45146, -3.30518, -4.57208, -2.34235
20, 2700.00000, -2.72514, -1.39613, -6.43748, -3.29802, -4.57101, -2.3418
21, 0.00000, -2.7274, -1.39729, -6.42952, -3.29394, -4.5703, -2.34143
21, 900.00000, -2.7274, -1.39729, -6.42954, -3.29395, -4.57029, -2.34143
21, 1800.00000, -2.7274, -1.39729, -6.42954, -3.29395, -4.57029, -2.34143
21, 2700.00000, -2.7274, -1.39729, -6.42954, -3.29395, -4.57029, -2.34143
22, 0.00000, -2.72875, -1.39798, -6.42468, -3.29146, -4.56984, -2.3412
22, 900.00000, -2.7341, -1.40072, -6.40472, -3.28124, -4.56773, -2.34012
22, 1800.00000, -2.73891, -1.40318, -6.38568, -3.27148, -4.56537, -2.3389
22, 2700.00000, -2.74408, -1.40583, -6.36406, -3.2604, -4.56231, -2.33734
23, 0.00000, -2.74913, -1.40841, -6.34151, -3.24885, -4.55874, -2.33551
23, 900.00000, -2.75651, -1.41218, -6.30589, -3.2306, -4.55237, -2.33224
23, 1800.00000, -2.76321, -1.41561, -6.27021, -3.21231, -4.54517, -2.32855
23, 2700.00000, -2.77002, -1.41907, -6.23017, -3.19179, -4.53621, -2.32395
24, 0.00000, -2.77613, -1.42219, -6.19013, -3.17126, -4.52642, -2.31892
