hour, t(sec), P1 (kW), Q1 (kvar), P2 (kW), Q2 (kvar), P3 (kW), Q3 (kvar)
0, 900.00000, 3.25468, 0.949805, 6.97755, 2.03571, 5.25806, 1.5348
0, 1800.00000, 3.25657, 0.950347, 6.93243, 2.02253, 5.24282, 1.53033
0, 2700.00000, 3.25764, 0.95065, 6.882, 2.00781, 5.22545, 1.52524
1, 0.00000, 3.25834, 0.950848, 6.8337, 1.9937, 5.20821, 1.52019
1, 900.00000, 3.25879, 0.950971, 6.77942, 1.97785, 5.18816, 1.51432
1, 1800.00000, 3.25886, 0.950992, 6.758, 1.9716, 5.18005, 1.51195
1, 2700.00000, 3.25888, 0.950997, 6.74063, 1.96652, 5.17341, 1.51
2, 0.00000, 3.25886, 0.950991, 6.72305, 1.96139, 5.16661, 1.50801
2, 900.00000, 3.25881, 0.950974, 6.70527, 1.9562, 5.15967, 1.50598
2, 1800.00000, 3.25867, 0.950927, 6.67822, 1.9483, 5.14898, 1.50285
2, 2700.00000, 3.25843, 0.950854, 6.65069, 1.94027, 5.13794, 1.49962
3, 0.00000, 3.2581, 0.950754, 6.62269, 1.9321, 5.12654, 1.49628
3, 900.00000, 3.25767, 0.950626, 6.59421, 1.92378, 5.11478, 1.49284
3, 1800.00000, 3.25742, 0.950551, 6.57979, 1.91958, 5.10877, 1.49106
3, 2700.00000, 3.25733, 0.950525, 6.57495, 1.91816, 5.10674, 1.49048
4, 0.00000, 3.25724, 0.950497, 6.5701, 1.91674, 5.1047, 1.48989
4, 900.00000, 3.25724, 0.950498, 6.5701, 1.91674, 5.1047, 1.4899
4, 1800.00000, 3.25742, 0.950553, 6.57978, 1.91956, 5.10876, 1.4911
4, 2700.00000, 3.25782, 0.950674, 6.60376, 1.92657, 5.11874, 1.49401
5, 0.00000, 3.25822, 0.950793, 6.63208, 1.93484, 5.13037, 1.49741
5, 900.00000, 3.25847, 0.95087, 6.65532, 1.94162, 5.1398, 1.50017
5, 1800.00000, 3.25874, 0.950956, 6.69181, 1.95227, 5.15436, 1.50443
5, 2700.00000, 3.25885, 0.950997, 6.74935, 1.96907, 5.17675, 1.51098
6, 0.00000, 3.25859, 0.950927, 6.80477, 1.98525, 5.19759, 1.51708
6, 900.00000, 3.23977, 0.966157, 6.76621, 2.01467, 5.15433, 1.53608
6, 1800.00000, 3.22099, 0.981156, 6.73192, 2.04478, 5.1131, 1.5551
6, 2700.00000, 3.21185, 0.987614, 6.77339, 2.07547, 5.11487, 1.56967
7, 0.00000, 3.20231, 0.993536, 6.81228, 2.1048, 5.11546, 1.58331
7, 900.00000, 3.30221, 0.850997, 7.69586, 1.99576, 5.65199, 1.46252
7, 1800.00000, 3.27931, 0.869601, 7.63386, 2.03396, 5.59057, 1.48714
7, 2700.00000, 3.24851, 0.901138, 7.49812, 2.08508, 5.48482, 1.52424
8, 0.00000, 3.21658, 0.933181, 7.35887, 2.13503, 5.37755, 1.56079
8, 900.00000, 3.23089, 0.889344, 7.63466, 2.10716, 5.52335, 1.52308
8, 1800.00000, 3.20568, 0.913225, 7.53601, 2.14882, 5.44345, 1.55207
8, 2700.00000, 3.17485, 0.952084, 7.34635, 2.19922, 5.31572, 1.59329
9, 0.00000, 3.14515, 0.985348, 7.1881, 2.24262, 5.20565, 1.62788
9, 900.00000, 3.17287, 0.934263, 7.47227, 2.19863, 5.37018, 1.58132
9, 1800.00000, 3.14596, 0.9664, 7.31984, 2.24191, 5.26549, 1.61578
9, 2700.00000, 3.12085, 0.99189, 7.20556, 2.27905, 5.18172, 1.64352
10, 0.00000, 3.09413, 1.0175, 7.0926, 2.31666, 5.09722, 1.67117
10, 900.00000, 3.06646, 1.0437, 6.97593, 2.3536, 5.01085, 1.69863
10, 1800.00000, 3.03718, 1.06998, 6.86078, 2.39093, 4.92408, 1.72593
10, 2700.00000, 3.01427, 1.08962, 6.77591, 2.41919, 4.85904, 1.74626
11, 0.00000, 2.98308, 1.11743, 6.6502, 2.45484, 4.76704, 1.77329
11, 900.00000, 2.73064, 1.32264, 5.63835, 2.63403, 4.06844, 1.93052
11, 1800.00000, 2.69506, 1.34506, 5.54437, 2.66175, 3.99352, 1.94956
11, 2700.00000, 2.66774, 1.36243, 5.46332, 2.67807, 3.93325, 1.96223
12, 0.00000, 2.65122, 1.37302, 5.40858, 2.68465, 3.89503, 1.96858
12, 900.00000, 2.44009, 1.48811, 4.80033, 2.77027, 3.45226, 2.04122
12, 1800.00000, 2.4186, 1.49845, 4.74088, 2.77726, 3.40842, 2.04727
12, 2700.00000, 2.41596, 1.49947, 4.73, 2.77634, 3.40148, 2.04721
13, 0.00000, 2.41477, 1.49992, 4.72456, 2.77564, 3.3983, 2.04689
13, 900.00000, 2.1928, 1.60023, 4.17221, 2.84559, 2.98213, 2.10102
13, 1800.00000, 2.21529, 1.59052, 4.22382, 2.83789, 3.02208, 2.09571
13, 2700.00000, 2.23932, 1.58018, 4.28119, 2.83073, 3.06572, 2.09042
14, 0.00000, 2.28961, 1.55836, 4.40639, 2.81738, 3.15944, 2.07974
14, 900.00000, 2.3377, 1.53677, 4.52947, 2.804, 3.25098, 2.06875
14, 1800.00000, 2.40592, 1.50485, 4.71006, 2.7838, 3.38424, 2.0517
14, 2700.00000, 2.46836, 1.47409, 4.88066, 2.76301, 3.50949, 2.03405
15, 0.00000, 2.54477, 1.43434, 5.09812, 2.73482, 3.66778, 2.00978
15, 900.00000, 2.6159, 1.39429, 5.31377, 2.70728, 3.82165, 1.98493
15, 1800.00000, 2.67979, 1.35362, 5.51997, 2.68047, 3.96667, 1.95992
15, 2700.00000, 2.75014, 1.30492, 5.76497, 2.64586, 4.13715, 1.92827
16, 0.00000, 2.8107, 1.25931, 5.99111, 2.60991, 4.29363, 1.89607
16, 900.00000, 2.5876, 1.41111, 5.23546, 2.72298, 3.76277, 1.99671
16, 1800.00000, 2.68146, 1.35217, 5.53143, 2.68227, 3.97264, 1.96001
16, 2700.00000, 2.76163, 1.29638, 5.8087, 2.64016, 4.16683, 1.92272
17, 0.00000, 2.81682, 1.25646, 5.99499, 2.60085, 4.30246, 1.8911
17, 900.00000, 2.76159, 1.29978, 5.76581, 2.62542, 4.15101, 1.91862
17, 1800.00000, 2.85077, 1.23444, 6.07711, 2.56437, 4.37452, 1.86855
17, 2700.00000, 2.91822, 1.18003, 6.33637, 2.5104, 4.55832, 1.82423
18, 0.00000, 2.95299, 1.15009, 6.47853, 2.47959, 4.65878, 1.79818
18, 900.00000, 2.8394, 1.2481, 5.978, 2.55629, 4.32289, 1.87107
18, 1800.00000, 2.83716, 1.25095, 5.9539, 2.55241, 4.31142, 1.87064
18, 2700.00000, 2.83501, 1.25347, 5.93329, 2.54966, 4.30094, 1.87075
19, 0.00000, 2.83238, 1.25646, 5.90828, 2.54616, 4.28837, 1.87059
19, 900.00000, 2.83002, 1.25899, 5.8871, 2.54331, 4.27749, 1.87057
19, 1800.00000, 2.82711, 1.262, 5.86139, 2.53965, 4.2644, 1.87033
19, 2700.00000, 2.82452, 1.26454, 5.83964, 2.53665, 4.25309, 1.87022
20, 0.00000, 3.15486, 0.920815, 7.58826, 2.21412, 5.39908, 1.57627
20, 900.00000, 3.15969, 0.922217, 7.57226, 2.20944, 5.39823, 1.57601
20, 1800.00000, 3.16445, 0.923603, 7.55579, 2.20463, 5.39703, 1.57564
20, 2700.00000, 3.16917, 0.924974, 7.53878, 2.19966, 5.39553, 1.57519
21, 0.00000, 3.17176, 0.925728, 7.52911, 2.19683, 5.39456, 1.5749
21, 900.00000, 3.17176, 0.925728, 7.52913, 2.19683, 5.39455, 1.5749
21, 1800.00000, 3.17176, 0.925728, 7.52913, 2.19683, 5.39455, 1.5749
21, 2700.00000, 3.17176, 0.925728, 7.52913, 2.19683, 5.39455, 1.5749
22, 0.00000, 3.17331, 0.926179, 7.52322, 2.19511, 5.39394, 1.57472
22, 900.00000, 3.17946, 0.927963, 7.49896, 2.18802, 5.39112, 1.57388
22, 1800.00000, 3.18499, 0.929571, 7.47585, 2.18126, 5.38801, 1.57295
22, 2700.00000, 3.19093, 0.931293, 7.44961, 2.17359, 5.38405, 1.57178
23, 0.00000, 3.19674, 0.93298, 7.42227, 2.1656, 5.37945, 1.57042
23, 900.00000, 3.20522, 0.935431, 7.37914, 2.15299, 5.37134, 1.56803
23, 1800.00000, 3.21293, 0.937662, 7.33598, 2.14038, 5.36223, 1.56535
23, 2700.00000, 3.22075, 0.939916, 7.28759, 2.12623, 5.35098, 1.56203
24, 0.00000, 3.22778, 0.94194, 7.23925, 2.11209, 5.33874, 1.55842
