hour, t(sec), P1 (kW), Q1 (kvar), P2 (kW), Q2 (kvar), P3 (kW), Q3 (kvar)
0, 900.00000, 500.991, 448.041, 808.261, 613.655, 403.23, 776.802
0, 1800.00000, 497.577, 443.965, 800.944, 603.48, 403.829, 766.809
0, 2700.00000, 493.817, 439.483, 792.827, 592.385, 404.372, 755.809
1, 0.00000, 490.285, 435.268, 785.155, 582.075, 404.766, 745.491
1, 900.00000, 486.391, 430.613, 776.647, 570.83, 405.07, 734.13
1, 1800.00000, 484.873, 428.8, 773.318, 566.485, 405.152, 729.711
1, 2700.00000, 483.651, 427.337, 770.633, 563.001, 405.203, 726.154
2, 0.00000, 482.422, 425.866, 767.927, 559.509, 405.24, 722.578
2, 900.00000, 481.186, 424.385, 765.201, 556.01, 405.264, 718.985
2, 1800.00000, 479.317, 422.145, 761.074, 550.749, 405.275, 713.559
2, 2700.00000, 477.432, 419.884, 756.9, 545.471, 405.254, 708.091
3, 0.00000, 475.529, 417.601, 752.678, 540.179, 405.201, 702.581
3, 900.00000, 473.609, 415.295, 748.409, 534.87, 405.115, 697.029
3, 1800.00000, 472.643, 414.136, 746.257, 532.211, 405.061, 694.238
3, 2700.00000, 472.319, 413.746, 745.536, 531.323, 405.04, 693.304
4, 0.00000, 471.995, 413.357, 744.814, 530.435, 405.018, 692.369
4, 900.00000, 471.995, 413.357, 744.814, 530.435, 405.018, 692.369
4, 1800.00000, 472.642, 414.133, 746.255, 532.21, 405.059, 694.235
4, 2700.00000, 474.25, 416.062, 749.836, 536.639, 405.146, 698.881
5, 0.00000, 476.165, 418.365, 754.09, 541.945, 405.222, 704.423
5, 900.00000, 477.747, 420.263, 757.599, 546.353, 405.26, 709.006
5, 1800.00000, 480.253, 423.269, 763.143, 553.382, 405.274, 716.278
5, 2700.00000, 484.263, 428.073, 771.978, 564.745, 405.179, 727.937
6, 0.00000, 488.197, 432.78, 780.599, 576.032, 404.947, 739.401
6, 900.00000, 490.93, 437.041, 786.545, 586.357, 403.45, 748.899
6, 1800.00000, 493.915, 441.571, 792.977, 597.438, 401.855, 759.079
6, 2700.00000, 499.544, 448.696, 805.015, 615.176, 400.365, 776.151
7, 0.00000, 505.14, 455.998, 816.484, 632.878, 398.718, 792.812
7, 900.00000, 522.838, 470.449, 852.975, 667.483, 404.807, 832.113
7, 1800.00000, 526.429, 476.577, 859.59, 682.219, 401.646, 844.345
7, 2700.00000, 528.726, 481.842, 863.331, 694.907, 397.686, 853.841
8, 0.00000, 530.735, 486.686, 866.433, 706.59, 393.832, 862.379
8, 900.00000, 541.093, 496.419, 886.957, 731.263, 394.301, 887.305
8, 1800.00000, 543.533, 501.351, 890.769, 743.421, 390.621, 896.378
8, 2700.00000, 542.866, 503.058, 888.541, 747.316, 387.343, 897.542
9, 0.00000, 542.782, 505.091, 887.533, 752.088, 384.38, 899.833
9, 900.00000, 561.942, 518.07, 926.849, 787.641, 390.557, 940.32
9, 1800.00000, 561.801, 519.961, 925.619, 792.12, 387.604, 942.278
9, 2700.00000, 562.648, 522.748, 926.253, 798.984, 384.603, 946.539
10, 0.00000, 563.7, 525.794, 927.222, 806.529, 381.468, 951.352
10, 900.00000, 546.065, 518.106, 889.542, 783.35, 370.306, 919.045
10, 1800.00000, 547.241, 521.231, 890.807, 790.928, 367.387, 924.057
10, 2700.00000, 548.285, 523.767, 892.024, 797.111, 365.114, 928.232
11, 0.00000, 548.741, 525.968, 892.026, 802.356, 362.566, 931.256
11, 900.00000, 531.074, 518.751, 854.998, 780.865, 350.659, 900.48
11, 1800.00000, 532.227, 521.33, 856.444, 787.029, 348.581, 904.772
11, 2700.00000, 531.994, 521.877, 855.656, 788.197, 347.553, 905.058
12, 0.00000, 531.131, 521.28, 853.997, 786.63, 347.291, 903.338
12, 900.00000, 530.512, 520.973, 852.738, 785.764, 346.946, 902.216
12, 1800.00000, 529.641, 520.375, 851.051, 784.183, 346.679, 900.47
12, 2700.00000, 529.136, 519.792, 850.176, 782.728, 346.844, 899.195
13, 0.00000, 528.883, 519.499, 849.732, 781.996, 346.928, 898.551
13, 900.00000, 529.253, 519.516, 850.552, 782.124, 347.366, 899.025
13, 1800.00000, 529.623, 519.532, 851.376, 782.257, 347.801, 899.507
13, 2700.00000, 530.243, 519.84, 852.63, 783.114, 348.153, 900.62
14, 0.00000, 531.978, 521.039, 856.01, 786.301, 348.669, 904.134
14, 900.00000, 533.699, 522.233, 859.354, 789.479, 349.166, 907.623
14, 1800.00000, 536.253, 524.017, 864.319, 794.245, 349.873, 912.83
14, 2700.00000, 538.535, 525.504, 868.806, 798.283, 350.634, 917.378
15, 0.00000, 541.38, 527.287, 874.442, 803.185, 351.66, 922.992
15, 900.00000, 524.829, 519.522, 840.63, 780.997, 341.887, 893.506
15, 1800.00000, 527.786, 521.318, 846.454, 785.834, 343.104, 899.171
15, 2700.00000, 531.318, 523.392, 853.458, 791.485, 344.636, 905.887
16, 0.00000, 534.311, 524.877, 859.541, 795.68, 346.297, 911.311
16, 900.00000, 517.798, 516.858, 826.188, 773.236, 336.79, 881.955
16, 1800.00000, 521.77, 518.924, 834.095, 778.88, 338.916, 889.091
16, 2700.00000, 525.428, 520.678, 841.481, 783.768, 341.074, 895.545
17, 0.00000, 526.158, 519.498, 843.607, 781.278, 343.562, 895.127
17, 900.00000, 506.868, 508.714, 805.555, 752.603, 333.89, 859.868
17, 1800.00000, 508.924, 507.727, 810.396, 750.846, 337.712, 861.158
17, 2700.00000, 510.595, 506.749, 814.416, 749.023, 341.054, 862.021
18, 0.00000, 511.462, 506.103, 816.559, 747.761, 342.976, 862.312
18, 900.00000, 487.544, 494.422, 769.211, 717.476, 327.809, 821.615
18, 1800.00000, 485.702, 492.521, 765.942, 713.031, 327.836, 817.4
18, 2700.00000, 484.155, 490.926, 763.184, 709.315, 327.84, 813.86
19, 0.00000, 482.284, 489.002, 759.841, 704.844, 327.826, 809.585
19, 900.00000, 503.907, 497.738, 803.107, 727.626, 344.213, 843.866
19, 1800.00000, 502.191, 495.845, 800.023, 723.113, 344.437, 839.685
19, 2700.00000, 500.749, 494.259, 797.43, 719.34, 344.611, 836.181
20, 0.00000, 498.421, 491.704, 793.232, 713.284, 344.862, 830.533
20, 900.00000, 517.974, 499.546, 833.337, 734.264, 359.799, 862.483
20, 1800.00000, 555.578, 518.306, 911.656, 786.412, 382.083, 931.917
20, 2700.00000, 553.545, 515.642, 908.108, 779.564, 383.321, 926.171
21, 0.00000, 552.406, 514.151, 906.113, 775.744, 383.999, 922.954
21, 900.00000, 552.406, 514.151, 906.115, 775.745, 383.998, 922.956
21, 1800.00000, 552.405, 514.151, 906.115, 775.745, 383.998, 922.956
21, 2700.00000, 552.405, 514.151, 906.115, 775.745, 383.998, 922.956
22, 0.00000, 551.719, 513.253, 904.905, 773.446, 384.402, 921.013
22, 900.00000, 548.951, 509.633, 899.999, 764.204, 385.989, 913.17
22, 1800.00000, 546.377, 506.275, 895.402, 755.671, 387.405, 905.88
22, 2700.00000, 543.531, 502.567, 890.272, 746.292, 388.906, 897.81
23, 0.00000, 540.643, 498.811, 885.019, 736.84, 390.358, 889.616
23, 900.00000, 536.232, 493.086, 876.904, 722.525, 392.44, 877.09
23, 1800.00000, 531.975, 487.572, 868.973, 708.855, 394.291, 864.995
23, 2700.00000, 527.367, 481.618, 860.282, 694.221, 396.122, 851.9
24, 0.00000, 522.918, 475.881, 851.787, 680.25, 397.718, 839.253
