hour, t(sec), P1 (kW), Q1 (kvar), P2 (kW), Q2 (kvar), P3 (kW), Q3 (kvar)
0, 900.00000, 3.26386, 0.952484, 6.96645, 2.03247, 5.2419, 1.53008
0, 1800.00000, 3.26543, 0.952934, 6.92146, 2.01934, 5.22672, 1.52563
0, 2700.00000, 3.26637, 0.953198, 6.8711, 2.00463, 5.20926, 1.52052
1, 0.00000, 3.26695, 0.953361, 6.82287, 1.99054, 5.19195, 1.51544
1, 900.00000, 3.26725, 0.953443, 6.76868, 1.97472, 5.17183, 1.50955
1, 1800.00000, 3.26727, 0.953447, 6.7473, 1.96847, 5.16369, 1.50717
1, 2700.00000, 3.26724, 0.953438, 6.72996, 1.96341, 5.15703, 1.50522
2, 0.00000, 3.26719, 0.953419, 6.71241, 1.95829, 5.15021, 1.50323
2, 900.00000, 3.26709, 0.953388, 6.69467, 1.95311, 5.14325, 1.50119
2, 1800.00000, 3.26687, 0.953321, 6.66766, 1.94523, 5.13253, 1.49805
2, 2700.00000, 3.26656, 0.953227, 6.64019, 1.93721, 5.12147, 1.49481
3, 0.00000, 3.26615, 0.953105, 6.61225, 1.92905, 5.11005, 1.49147
3, 900.00000, 3.26565, 0.952954, 6.58382, 1.92075, 5.09828, 1.48803
3, 1800.00000, 3.26536, 0.952868, 6.56943, 1.91656, 5.09226, 1.48624
3, 2700.00000, 3.26525, 0.952838, 6.5646, 1.91514, 5.09023, 1.48566
4, 0.00000, 3.26515, 0.952806, 6.55976, 1.91373, 5.08819, 1.48507
4, 900.00000, 3.26515, 0.952807, 6.55976, 1.91373, 5.08818, 1.48508
4, 1800.00000, 3.26535, 0.952869, 6.56942, 1.91654, 5.09224, 1.48628
4, 2700.00000, 3.26583, 0.953009, 6.59334, 1.92351, 5.10223, 1.48922
5, 0.00000, 3.26629, 0.953151, 6.62162, 1.93178, 5.11389, 1.4926
5, 900.00000, 3.26661, 0.953246, 6.64481, 1.93855, 5.12333, 1.49536
5, 1800.00000, 3.26698, 0.95336, 6.68123, 1.94919, 5.13793, 1.49964
5, 2700.00000, 3.26724, 0.953446, 6.73867, 1.96596, 5.16037, 1.5062
6, 0.00000, 3.26712, 0.953417, 6.79399, 1.98211, 5.18129, 1.51233
6, 900.00000, 3.24824, 0.968663, 6.75522, 2.01137, 5.13778, 1.53114
6, 1800.00000, 3.22939, 0.983677, 6.72071, 2.04133, 5.09631, 1.54998
6, 2700.00000, 3.22036, 0.990186, 6.76198, 2.07192, 5.09806, 1.56448
7, 0.00000, 3.21112, 0.996224, 6.8006, 2.10114, 5.09852, 1.57804
7, 900.00000, 3.18314, 1.01683, 6.74672, 2.14232, 5.03847, 1.6038
7, 1800.00000, 3.15538, 1.03716, 6.68934, 2.18165, 4.97779, 1.62854
7, 2700.00000, 3.10923, 1.07364, 6.54028, 2.23336, 4.8556, 1.66531
8, 0.00000, 3.06091, 1.11066, 6.38635, 2.28358, 4.73109, 1.70125
8, 900.00000, 3.01045, 1.14753, 6.23587, 2.33416, 4.60783, 1.73683
8, 1800.00000, 2.96972, 1.17599, 6.12892, 2.37668, 4.51531, 1.76526
8, 2700.00000, 2.89738, 1.2244, 5.88986, 2.42678, 4.33765, 1.80513
9, 0.00000, 2.83338, 1.26496, 5.69531, 2.46991, 4.18929, 1.83806
9, 900.00000, 2.78021, 1.29735, 5.54401, 2.5053, 4.07164, 1.86418
9, 1800.00000, 2.7085, 1.33906, 5.34369, 2.5482, 3.91682, 1.89611
9, 2700.00000, 2.65257, 1.37084, 5.20408, 2.58523, 3.80402, 1.92158
10, 0.00000, 2.59599, 1.40217, 5.06894, 2.62274, 3.6934, 1.94669
10, 900.00000, 2.53657, 1.43392, 4.92778, 2.65948, 3.57867, 1.97121
10, 1800.00000, 2.47655, 1.46521, 4.79155, 2.69647, 3.46677, 1.99526
10, 2700.00000, 2.43135, 1.48833, 4.69336, 2.72436, 3.38538, 2.013
11, 0.00000, 2.36381, 1.52117, 4.53921, 2.7593, 3.26148, 2.03581
11, 900.00000, 2.33905, 1.53407, 4.49637, 2.77983, 3.22167, 2.04745
11, 1800.00000, 2.29176, 1.55677, 4.39768, 2.80734, 3.1395, 2.06421
11, 2700.00000, 2.2524, 1.57443, 4.30839, 2.82353, 3.06941, 2.07489
12, 0.00000, 2.22631, 1.58534, 4.24574, 2.8301, 3.02241, 2.08005
12, 900.00000, 2.20201, 1.59551, 4.18853, 2.83717, 2.97881, 2.08508
12, 1800.00000, 2.17516, 1.60639, 4.12485, 2.84373, 2.93072, 2.08998
12, 2700.00000, 2.17136, 1.60759, 4.1125, 2.84269, 2.92243, 2.08967
13, 0.00000, 2.16935, 1.60823, 4.10634, 2.84216, 2.91831, 2.08953
13, 900.00000, 2.19265, 1.59852, 4.15801, 2.83458, 2.95844, 2.08439
13, 1800.00000, 2.21528, 1.58897, 4.20953, 2.82701, 2.99837, 2.07931
13, 2700.00000, 2.23952, 1.57878, 4.26677, 2.81996, 3.04199, 2.07424
14, 0.00000, 2.28984, 1.55741, 4.39181, 2.80686, 3.13574, 2.06419
14, 900.00000, 2.33835, 1.53614, 4.51468, 2.79369, 3.22729, 2.05367
14, 1800.00000, 2.40716, 1.50466, 4.695, 2.77382, 3.36064, 2.03733
14, 2700.00000, 2.47023, 1.47428, 4.8654, 2.75335, 3.48603, 2.02034
15, 0.00000, 2.54747, 1.43496, 5.0827, 2.7256, 3.64459, 1.99691
15, 900.00000, 2.61936, 1.3954, 5.29824, 2.69857, 3.79877, 1.97287
15, 1800.00000, 2.68402, 1.35511, 5.50441, 2.6721, 3.94411, 1.9487
15, 2700.00000, 2.75529, 1.30682, 5.7496, 2.63817, 4.1151, 1.91781
16, 0.00000, 2.81672, 1.26154, 5.97598, 2.60282, 4.27221, 1.88639
16, 900.00000, 2.88064, 1.20964, 6.23454, 2.55989, 4.44935, 1.84811
16, 1800.00000, 2.93479, 1.15991, 6.48272, 2.51705, 4.61517, 1.80937
16, 2700.00000, 2.98026, 1.11319, 6.71417, 2.47359, 4.76744, 1.77045
17, 0.00000, 3.01449, 1.0791, 6.87475, 2.4338, 4.8783, 1.73862
17, 900.00000, 3.05623, 1.03246, 7.09764, 2.37922, 5.02774, 1.69382
17, 1800.00000, 3.09632, 0.981533, 7.34061, 2.31732, 5.18725, 1.64246
17, 2700.00000, 3.12585, 0.939571, 7.54141, 2.26334, 5.3167, 1.59803
18, 0.00000, 3.14066, 0.916616, 7.65141, 2.2326, 5.38658, 1.57274
18, 900.00000, 3.14338, 0.917588, 7.64387, 2.23053, 5.38641, 1.57329
18, 1800.00000, 3.1467, 0.918564, 7.63472, 2.22788, 5.38652, 1.57341
18, 2700.00000, 3.14945, 0.919335, 7.62705, 2.22561, 5.38661, 1.57327
19, 0.00000, 3.15273, 0.920306, 7.61753, 2.22283, 5.38652, 1.57333
19, 900.00000, 3.15545, 0.921072, 7.60952, 2.22046, 5.38642, 1.57315
19, 1800.00000, 3.1587, 0.922031, 7.5996, 2.21757, 5.38613, 1.57314
19, 2700.00000, 3.16139, 0.922792, 7.59124, 2.2151, 5.38586, 1.57293
20, 0.00000, 3.16568, 0.923915, 7.57771, 2.21111, 5.38539, 1.57207
20, 900.00000, 3.17045, 0.925299, 7.56172, 2.20645, 5.38435, 1.57174
20, 1800.00000, 3.17518, 0.926679, 7.5452, 2.20161, 5.38303, 1.57137
20, 2700.00000, 3.17985, 0.928045, 7.52813, 2.19661, 5.38142, 1.57091
21, 0.00000, 3.18241, 0.928887, 7.5182, 2.19369, 5.38031, 1.57111
21, 900.00000, 3.1824, 0.928846, 7.51834, 2.19367, 5.38042, 1.5708
21, 1800.00000, 3.18241, 0.928838, 7.51835, 2.19369, 5.38041, 1.57078
21, 2700.00000, 3.18241, 0.928836, 7.51835, 2.19369, 5.38041, 1.57077
22, 0.00000, 3.18395, 0.92931, 7.51235, 2.19196, 5.37969, 1.57077
22, 900.00000, 3.19004, 0.931012, 7.4882, 2.18494, 5.37676, 1.56952
22, 1800.00000, 3.19552, 0.932612, 7.46502, 2.17816, 5.37351, 1.56859
22, 2700.00000, 3.20138, 0.934321, 7.43872, 2.17047, 5.3694, 1.56739
23, 0.00000, 3.20712, 0.935996, 7.41132, 2.16246, 5.36467, 1.56601
23, 900.00000, 3.21549, 0.938426, 7.36813, 2.14984, 5.35633, 1.56354
23, 1800.00000, 3.22309, 0.940642, 7.32489, 2.1372, 5.34705, 1.56085
23, 2700.00000, 3.23078, 0.942881, 7.27644, 2.12303, 5.3356, 1.5575
24, 0.00000, 3.23768, 0.944889, 7.22805, 2.10889, 5.32318, 1.55387
