hour, t(sec), P1 (kW), Q1 (kvar), P2 (kW), Q2 (kvar), P3 (kW), Q3 (kvar)
0, 900.00000, 498.428, 455.554, 801.047, 630.491, 390.395, 783.665
0, 1800.00000, 494.434, 450.737, 792.722, 618.536, 391.218, 772.123
0, 2700.00000, 490.086, 445.524, 783.535, 605.644, 391.972, 759.526
1, 0.00000, 485.645, 440.188, 774.082, 592.638, 392.569, 746.675
1, 900.00000, 481.414, 435.103, 765.011, 580.401, 392.978, 734.453
1, 1800.00000, 476.784, 429.529, 755.02, 567.183, 393.247, 721.105
1, 2700.00000, 472.048, 423.819, 744.738, 553.856, 393.328, 707.492
2, 0.00000, 467.202, 417.967, 734.158, 540.423, 393.21, 693.607
2, 900.00000, 462.239, 411.965, 723.271, 526.885, 392.879, 679.448
2, 1800.00000, 457.153, 405.807, 712.069, 513.243, 392.324, 665.008
2, 2700.00000, 452.29, 399.911, 701.32, 500.421, 391.588, 651.274
3, 0.00000, 446.948, 393.428, 689.48, 486.587, 390.555, 636.281
3, 900.00000, 441.46, 386.764, 677.298, 472.659, 389.251, 620.996
3, 1800.00000, 435.819, 379.911, 664.763, 458.639, 387.659, 605.415
3, 2700.00000, 430, 372.855, 651.862, 444.542, 385.741, 589.545
4, 0.00000, 424.015, 365.591, 638.59, 430.352, 383.511, 573.368
4, 900.00000, 418.26, 358.613, 625.857, 417.037, 381.116, 557.996
4, 1800.00000, 411.901, 350.913, 611.834, 402.697, 378.196, 541.231
4, 2700.00000, 405.327, 342.97, 597.406, 388.287, 374.884, 524.161
5, 0.00000, 398.521, 334.771, 582.564, 373.812, 371.157, 506.787
5, 900.00000, 391.444, 326.305, 567.293, 359.284, 366.972, 489.126
5, 1800.00000, 384.113, 317.557, 551.585, 344.697, 362.33, 471.151
5, 2700.00000, 376.491, 308.515, 535.426, 330.065, 357.188, 452.88
6, 0.00000, 368.552, 299.163, 518.805, 315.393, 351.517, 434.317
6, 900.00000, 350.929, 285.366, 484.99, 296.181, 334.472, 404.669
6, 1800.00000, 332.531, 271.806, 451.105, 278.419, 316.079, 376.285
6, 2700.00000, 317.369, 259.21, 423.597, 262.101, 301.472, 351.884
7, 0.00000, 301.161, 246.221, 395.202, 246.046, 285.543, 327.466
7, 900.00000, 271.567, 228.86, 347.298, 227.286, 254.24, 293.555
7, 1800.00000, 238.778, 211.551, 297.49, 209.854, 219.719, 260.965
7, 2700.00000, 187.402, 191.774, 225.911, 192.51, 165.685, 222.694
8, 0.00000, 129.246, 174.512, 152.614, 178.702, 106.85, 190.081
8, 900.00000, 64.2658, 160.929, 80.3549, 168.588, 44.6238, 165.193
8, 1800.00000, 3.00215, 151.926, 20.6293, 160.945, -10.8519, 150.125
8, 2700.00000, -84.3051, 150.366, -51.7344, 148.049, -82.068, 144.377
9, 0.00000, -158.224, 144.801, -88.466, 129.303, -137.235, 167.797
9, 900.00000, -155.445, 125.099, -153.483, 133.278, -153.218, 154.778
9, 1800.00000, -238.335, 122.848, -199.537, 232.406, -152.575, 100.352
9, 2700.00000, -152.736, 493.191, 45.7661, -175.734, -647.936, -16.0291
10, 0.00000, 1493.62, -4047.54, -5682.02, 603.679, 2991.71, 4741.07
10, 900.00000, -90027.4, 37837.3, 93751.5, 43815.6, -2762.21, -141899
10, 1800.00000, -1.68572E006, -1.5097E007, -9.08879E006, -2.58056E007, -1.07138E007, -2.12341E007
10, 2700.00000, -1.62362E010, -4.68255E010, -2.22021E010, -6.68337E010, -2.46008E010, -7.60293E010
11, 0.00000, -1.30397E014, -3.78964E014, -1.79919E014, -5.44128E014, -2.0145E014, -6.16035E014
11, 900.00000, -2.11041E018, -6.13322E018, -2.91191E018, -8.8056E018, -3.2598E018, -9.96956E018
11, 1800.00000, -7.6181E022, -2.21396E023, -1.05114E023, -3.17863E023, -1.17672E023, -3.59879E023
11, 2700.00000, -3.7381E027, -1.08636E028, -5.15779E027, -1.55971E028, -5.77399E027, -1.76588E028
12, 0.00000, -1.50023E032, -4.35994E032, -2.07E032, -6.25967E032, -2.31731E032, -7.0871E032
12, 900.00000, -4.91957E036, -1.42971E037, -6.78796E036, -2.05267E037, -7.59893E036, -2.324E037
12, 1800.00000, -INF, -INF, -INF, -INF, -INF, -INF
12, 2700.00000, -INF, -INF, -INF, -INF, -INF, -INF
13, 0.00000, -INF, -INF, -INF, -INF, -INF, -INF
13, 900.00000, -INF, -INF, -INF, -INF, -INF, -INF
13, 1800.00000, -INF, -INF, -INF, -INF, -INF, -INF
13, 2700.00000, -INF, -INF, -INF, -INF, -INF, -INF
14, 0.00000, -INF, -INF, -INF, -INF, -INF, -INF
14, 900.00000, -INF, -INF, -INF, -INF, -INF, -INF
14, 1800.00000, -INF, -INF, -INF, -INF, -INF, -INF
14, 2700.00000, -INF, -INF, -INF, -INF, -INF, -INF
15, 0.00000, -INF, -INF, -INF, -INF, -INF, -INF
15, 900.00000, -INF, -INF, -INF, -INF, -INF, -INF
15, 1800.00000, -INF, -INF, -INF, -INF, -INF, -INF
15, 2700.00000, -INF, -INF, -INF, -INF, -INF, -INF
16, 0.00000, -INF, -INF, -INF, -INF, -INF, -INF
16, 900.00000, -INF, -INF, -INF, -INF, -INF, -INF
16, 1800.00000, -INF, -INF, -INF, -INF, -INF, -INF
16, 2700.00000, -INF, -INF, -INF, -INF, -INF, -INF
17, 0.00000, -INF, -INF, -INF, -INF, -INF, -INF
17, 900.00000, -INF, -INF, -INF, -INF, -INF, -INF
17, 1800.00000, -INF, -INF, -INF, -INF, -INF, -INF
17, 2700.00000, -INF, -INF, -INF, -INF, -INF, -INF
18, 0.00000, -INF, -INF, -INF, -INF, -INF, -INF
18, 900.00000, -1.08902E034, -3.1649E034, -1.50262E034, -4.54392E034, -1.68214E034, -5.14455E034
18, 1800.00000, -6.03929E025, -1.75513E026, -8.33293E025, -2.51987E026, -9.32848E025, -2.85296E026
18, 2700.00000, -1.25665E017, -3.65206E017, -1.73392E017, -5.24336E017, -1.94108E017, -5.93644E017
19, 0.00000, -8.70216E007, -3.00604E008, -1.52768E008, -4.43722E008, -1.66852E008, -4.67346E008
19, 900.00000, 567.549, 121.947, 202.197, 181.699, 390.897, 742.355
19, 1800.00000, 396.643, 332.543, 578.532, 369.948, 370.075, 502.12
19, 2700.00000, 402.597, 339.724, 591.519, 382.513, 373.422, 517.275
20, 0.00000, 407.957, 346.179, 603.226, 394.066, 376.24, 531.046
20, 900.00000, 413.597, 352.99, 615.612, 406.533, 378.999, 545.746
20, 1800.00000, 418.663, 359.118, 626.777, 417.994, 381.288, 559.113
20, 2700.00000, 424.004, 365.591, 638.59, 430.355, 383.503, 573.375
21, 0.00000, 428.796, 371.416, 649.233, 441.722, 385.297, 586.348
21, 900.00000, 433.875, 377.577, 660.498, 453.964, 387.025, 600.174
21, 1800.00000, 438.452, 383.129, 670.653, 465.207, 388.413, 612.736
21, 2700.00000, 443.292, 389.003, 681.394, 477.322, 389.697, 626.133
22, 0.00000, 447.659, 394.3, 691.077, 488.444, 390.695, 638.303
22, 900.00000, 452.284, 399.909, 701.318, 500.425, 391.579, 651.278
22, 1800.00000, 456.462, 404.972, 710.55, 511.419, 392.226, 663.063
22, 2700.00000, 460.893, 410.337, 720.315, 523.258, 392.75, 675.626
23, 0.00000, 464.899, 415.184, 729.116, 534.119, 393.081, 687.035
23, 900.00000, 469.153, 420.325, 738.427, 545.81, 393.281, 699.195
23, 1800.00000, 473.004, 424.973, 746.818, 556.531, 393.327, 710.237
23, 2700.00000, 477.096, 429.907, 755.695, 568.069, 393.235, 722.005
24, 0.00000, 480.803, 434.372, 763.695, 578.646, 393.025, 732.691
