hour, t(sec), P1 (kW), Q1 (kvar), P2 (kW), Q2 (kvar), P3 (kW), Q3 (kvar)
0, 900.00000, 3.05883, 1.73397, 6.53953, 3.70667, 4.92785, 2.79408
0, 1800.00000, 3.06027, 1.73478, 6.49007, 3.67861, 4.91118, 2.7846
0, 2700.00000, 3.06125, 1.73533, 6.43482, 3.64728, 4.89186, 2.77362
1, 0.00000, 3.06186, 1.73566, 6.37707, 3.61454, 4.8708, 2.76166
1, 900.00000, 3.062, 1.73574, 6.32089, 3.58268, 4.8495, 2.74956
1, 1800.00000, 3.06169, 1.73555, 6.25812, 3.54709, 4.82482, 2.73554
1, 2700.00000, 3.06084, 1.73507, 6.19259, 3.50994, 4.79811, 2.72037
2, 0.00000, 3.05941, 1.73425, 6.12422, 3.47118, 4.76926, 2.70398
2, 900.00000, 3.05733, 1.73305, 6.05289, 3.43074, 4.73815, 2.6863
2, 1800.00000, 3.05454, 1.73145, 5.97851, 3.38858, 4.70467, 2.66726
2, 2700.00000, 3.05121, 1.72955, 5.90624, 3.3476, 4.67115, 2.6482
3, 0.00000, 3.04681, 1.72702, 5.82564, 3.30191, 4.63268, 2.6263
3, 900.00000, 3.04145, 1.72394, 5.74167, 3.2543, 4.59143, 2.60281
3, 1800.00000, 3.03501, 1.72023, 5.65419, 3.20471, 4.54723, 2.57763
3, 2700.00000, 3.02722, 1.71591, 5.56312, 3.15309, 4.49966, 2.55091
4, 0.00000, 3.01822, 1.71078, 5.46827, 3.09933, 4.44898, 2.52212
4, 900.00000, 3.0085, 1.70524, 5.37625, 3.04717, 4.39854, 2.49348
4, 1800.00000, 2.99653, 1.6984, 5.27377, 2.98909, 4.34097, 2.46075
4, 2700.00000, 2.98276, 1.69052, 5.16715, 2.92865, 4.27952, 2.42582
5, 0.00000, 2.96698, 1.6815, 5.05623, 2.86579, 4.21398, 2.38856
5, 900.00000, 2.94871, 1.6713, 4.94093, 2.80041, 4.14393, 2.34908
5, 1800.00000, 2.92816, 1.6596, 4.821, 2.73244, 4.06947, 2.30682
5, 2700.00000, 2.90483, 1.64631, 4.69631, 2.66178, 3.99021, 2.26182
6, 0.00000, 2.87843, 1.63126, 4.56672, 2.58834, 3.90586, 2.21393
6, 900.00000, 2.78191, 1.64872, 4.26809, 2.52665, 3.67725, 2.17797
6, 1800.00000, 2.67097, 1.66579, 3.96401, 2.46611, 3.43742, 2.14056
6, 2700.00000, 2.58112, 1.6615, 3.7232, 2.38941, 3.2495, 2.08785
7, 0.00000, 2.47847, 1.65405, 3.47196, 2.30891, 3.04904, 2.03048
7, 900.00000, 2.25467, 1.67779, 3.02158, 2.23632, 2.66612, 1.97758
7, 1800.00000, 1.98668, 1.69588, 2.54689, 2.15846, 2.25349, 1.91602
7, 2700.00000, 1.51828, 1.73873, 1.84168, 2.08638, 1.62196, 1.84915
8, 0.00000, 0.942529, 1.76185, 1.11113, 2.00543, 0.951209, 1.77413
8, 900.00000, 0.252968, 1.7443, 0.394381, 1.91773, 0.248378, 1.70588
8, 1800.00000, -0.408366, 1.65688, -0.185719, 1.84831, -0.396301, 1.63854
8, 2700.00000, -1.26859, 1.458, -0.92444, 1.83155, -1.30954, 1.48495
9, 0.00000, -1.77503, 1.29086, -1.53554, 1.8863, -2.03521, 1.14564
9, 900.00000, -2.13105, 1.8399, -2.8989, 1.32738, -1.13257, 0.611142
9, 1800.00000, -5.64149, 0.31348, -0.590984, -0.492004, -1.94216, 3.19774
9, 2700.00000, 6.83968, -15.0041, -26.254, 5.47593, -39.5666, -31.7275
10, 0.00000, -2290.28, -1565.99, -3080.39, -2804.93, -2916.15, -2739.97
10, 900.00000, -1.01752E006, -824524, -1.40273E006, -1.12885E006, -1.58844E006, -1.2675E006
10, 1800.00000, -1.38647E009, -1.04784E009, -1.92472E009, -1.45449E009, -2.15597E009, -1.62992E009
10, 2700.00000, -4.31419E012, -3.14225E012, -5.98676E012, -4.36052E012, -6.70796E012, -4.88577E012
11, 0.00000, -3.60124E016, -2.48462E016, -4.99745E016, -3.44794E016, -5.59945E016, -3.86328E016
11, 900.00000, -5.85804E020, -4.00196E020, -8.12922E020, -5.55356E020, -9.10848E020, -6.22255E020
11, 1800.00000, -2.14715E025, -1.42411E025, -2.9796E025, -1.97625E025, -3.33853E025, -2.21431E025
11, 2700.00000, -1.0728E030, -6.86772E029, -1.48873E030, -9.53041E029, -1.66807E030, -1.06784E030
12, 0.00000, -4.40373E034, -2.69556E034, -6.11107E034, -3.74066E034, -6.84722E034, -4.19127E034
12, 900.00000, -INF, -INF, -INF, -INF, -INF, -INF
12, 1800.00000, -INF, -INF, -INF, -INF, -INF, -INF
12, 2700.00000, -INF, -INF, -INF, -INF, -INF, -INF
13, 0.00000, -INF, -INF, -INF, -INF, -INF, -INF
13, 900.00000, -INF, -INF, -INF, -INF, -INF, -INF
13, 1800.00000, -INF, -INF, -INF, -INF, -INF, -INF
13, 2700.00000, -INF, -INF, -INF, -INF, -INF, -INF
14, 0.00000, -INF, -INF, -INF, -INF, -INF, -INF
14, 900.00000, -INF, -INF, -INF, -INF, -INF, -INF
14, 1800.00000, -INF, -INF, -INF, -INF, -INF, -INF
14, 2700.00000, -INF, -INF, -INF, -INF, -INF, -INF
15, 0.00000, -INF, -INF, -INF, -INF, -INF, -INF
15, 900.00000, -INF, -INF, -INF, -INF, -INF, -INF
15, 1800.00000, -INF, -INF, -INF, -INF, -INF, -INF
15, 2700.00000, -INF, -INF, -INF, -INF, -INF, -INF
16, 0.00000, -INF, -INF, -INF, -INF, -INF, -INF
16, 900.00000, -INF, -INF, -INF, -INF, -INF, -INF
16, 1800.00000, -INF, -INF, -INF, -INF, -INF, -INF
16, 2700.00000, -INF, -INF, -INF, -INF, -INF, -INF
17, 0.00000, -INF, -INF, -INF, -INF, -INF, -INF
17, 900.00000, -INF, -INF, -INF, -INF, -INF, -INF
17, 1800.00000, -INF, -INF, -INF, -INF, -INF, -INF
17, 2700.00000, -INF, -INF, -INF, -INF, -INF, -INF
18, 0.00000, INF, -INF, INF, -INF, INF, -INF
18, 900.00000, 1.25259E035, -4.73906E036, 1.73822E035, -6.57643E036, 1.94761E035, -7.36863E036
18, 1800.00000, 6.94633E026, -2.62809E028, 9.63945E026, -3.64702E028, 1.08006E027, -4.08634E028
18, 2700.00000, 1.44539E018, -5.46853E019, 2.00578E018, -7.58872E019, 2.2474E018, -8.50287E019
19, 0.00000, 1.18275E009, -4.47092E010, 1.64042E009, -6.20405E010, 1.83571E009, -6.95164E010
19, 900.00000, 26.2855, -16.4877, -3.86755, 15.7721, -10.7986, -42.9468
19, 1800.00000, 2.96218, 1.67901, 5.02591, 2.84865, 4.19561, 2.37838
19, 2700.00000, 2.97624, 1.68723, 5.12343, 2.90374, 4.25351, 2.4116
20, 0.00000, 2.98815, 1.69393, 5.2104, 2.95305, 4.30435, 2.44037
20, 900.00000, 2.99962, 1.70041, 5.30158, 3.00475, 4.35651, 2.46993
20, 1800.00000, 3.00905, 1.70572, 5.383, 3.05091, 4.40212, 2.49576
20, 2700.00000, 3.01807, 1.71083, 5.46833, 3.09929, 4.44888, 2.52227
21, 0.00000, 3.02526, 1.71504, 5.54452, 3.14251, 4.48948, 2.54563
21, 900.00000, 3.03225, 1.71897, 5.62432, 3.18774, 4.53135, 2.56932
21, 1800.00000, 3.0379, 1.72212, 5.69553, 3.2281, 4.5679, 2.58995
21, 2700.00000, 3.04316, 1.72509, 5.77011, 3.27038, 4.60525, 2.6111
22, 0.00000, 3.04732, 1.72742, 5.83663, 3.3081, 4.6378, 2.62951
22, 900.00000, 3.05113, 1.72957, 5.90628, 3.34758, 4.67103, 2.64833
22, 1800.00000, 3.05405, 1.73122, 5.96839, 3.3828, 4.69994, 2.66471
22, 2700.00000, 3.05662, 1.73268, 6.03338, 3.41965, 4.72942, 2.68142
23, 0.00000, 3.05851, 1.73374, 6.09132, 3.45251, 4.755, 2.69593
23, 900.00000, 3.06004, 1.73462, 6.15193, 3.48687, 4.78105, 2.7107
23, 1800.00000, 3.06105, 1.73519, 6.20593, 3.5175, 4.80361, 2.72351
23, 2700.00000, 3.06171, 1.73557, 6.2624, 3.54952, 4.82652, 2.73651
24, 0.00000, 3.06197, 1.73573, 6.31269, 3.57803, 4.84632, 2.74776
